
T0BC8 000:498 SEGGER J-Link V4.96d Log File (0001ms, 0425ms total)
T0BC8 000:498 DLL Compiled: Jan 29 2015 11:45:37 (0001ms, 0425ms total)
T0BC8 000:498 Logging started @ 2020-11-11 10:34 (0001ms, 0425ms total)
T0BC8 000:499 JLINK_SetWarnOutHandler(...) (0019ms, 0444ms total)
T0BC8 000:518 JLINK_OpenEx(...)
Firmware: J-Link ARM-OB STM32 compiled Aug 22 2012 19:52:04
Hardware: V7.00
S/N: 20160506
Feature(s): RDI,FlashDL,FlashBP,JFlash,GDBFull  returns O.K. (0286ms, 0730ms total)
T0BC8 000:804 JLINK_SetErrorOutHandler(...) (0000ms, 0730ms total)
T0BC8 000:804 JLINK_ExecCommand("ProjectFile = "G:\LaserRanging\USER\JLinkSettings.ini"", ...)  returns 0x00 (0003ms, 0733ms total)
T0BC8 000:811 JLINK_ExecCommand("Device = STM32F103C8", ...)Device "STM32F103C8" selected.  returns 0x00 (0024ms, 0757ms total)
T0BC8 000:835 JLINK_ExecCommand("DisableConnectionTimeout", ...)  returns 0x01 (0000ms, 0757ms total)
T0BC8 000:835 JLINK_GetHardwareVersion()  returns 0x11170 (0000ms, 0757ms total)
T0BC8 000:835 JLINK_GetDLLVersion()  returns 49604 (0000ms, 0757ms total)
T0BC8 000:835 JLINK_GetFirmwareString(...) (0000ms, 0757ms total)
T0BC8 000:843 JLINK_GetDLLVersion()  returns 49604 (0000ms, 0757ms total)
T0BC8 000:843 JLINK_GetCompileDateTime() (0001ms, 0758ms total)
T0BC8 000:846 JLINK_GetFirmwareString(...) (0000ms, 0758ms total)
T0BC8 000:849 JLINK_GetHardwareVersion()  returns 0x11170 (0000ms, 0758ms total)
T0BC8 000:872 JLINK_TIF_Select(JLINKARM_TIF_SWD)  returns 0x00 (0001ms, 0759ms total)
T0BC8 000:873 JLINK_SetSpeed(5000) (0000ms, 0759ms total)
T0BC8 000:873 JLINK_GetId() >0x108 TIF>Found SWD-DP with ID 0x1BA01477 >0x0D TIF> >0x28 TIF> >0x0D TIF> >0x28 TIF> >0x0D TIF> >0x21 TIF> >0x0D TIF> >0x28 TIF> >0x0D TIF> >0x28 TIF> >0x0D TIF> >0x28 TIF> >0x0D TIF> >0x21 TIF> >0x0D TIF> >0x21 TIF> >0x0D TIF> >0x28 TIF> >0x0D TIF> >0x21 TIF> >0x0D TIF> >0x21 TIF> >0x0D TIF> >0x28 TIF> >0x0D TIF> >0x28 TIF> >0x108 TIF>Found SWD-DP with ID 0x1BA01477 >0x0D TIF> >0x21 TIF> >0x0D TIF> >0x28 TIF> >0x0D TIF> >0x28 TIF> >0x0D TIF> >0x21 TIF> >0x0D TIF> >0x28 TIF>
 >0x0D TIF> >0x21 TIF> >0x0D TIF> >0x21 TIF> >0x0D TIF> >0x21 TIF> >0x0D TIF> >0x21 TIF> >0x0D TIF> >0x28 TIF> >0x0D TIF> >0x28 TIF> >0x0D TIF> >0x21 TIF> >0x0D TIF> >0x28 TIF> >0x0D TIF> >0x28 TIF> >0x0D TIF> >0x28 TIF> >0x0D TIF> >0x21 TIF> >0x0D TIF> >0x21 TIF> >0x0D TIF> >0x28 TIF> >0x0D TIF> >0x21 TIF> >0x0D TIF> >0x21 TIF>Found Cortex-M3 r1p1, Little endian. -- CPU_WriteMem(4 bytes @ 0xE0002000) -- CPU_ReadMem(4 bytes @ 0xE000EDF0) -- CPU_WriteMem(4 bytes @ 0xE000EDF0)
 -- CPU_ReadMem(4 bytes @ 0xE0002000)FPUnit: 6 code (BP) slots and 2 literal slots -- CPU_ReadMem(4 bytes @ 0xE000EDFC) -- CPU_WriteMem(4 bytes @ 0xE000EDFC) -- CPU_ReadMem(4 bytes @ 0xE0001000) -- CPU_WriteMem(4 bytes @ 0xE0001000) -- CPU_ReadMem(4 bytes @ 0xE000ED88) -- CPU_WriteMem(4 bytes @ 0xE000ED88) -- CPU_ReadMem(4 bytes @ 0xE000ED88) -- CPU_WriteMem(4 bytes @ 0xE000ED88) -- CPU_ReadMem(4 bytes @ 0xE00FF010)TPIU fitted. -- CPU_ReadMem(4 bytes @ 0xE00FF014) -- CPU_ReadMem(4 bytes @ 0xE00FF018)
 >0x0D TIF> >0x21 TIF>  returns 0x1BA01477 (0066ms, 0825ms total)
T0BC8 000:939 JLINK_GetDLLVersion()  returns 49604 (0000ms, 0825ms total)
T0BC8 000:939 JLINK_CORE_GetFound()  returns 0x30000FF (0000ms, 0825ms total)
T0BC8 000:939 JLINK_GetDebugInfo(0x100) -- Value=0xE00FF003  returns 0x00 (0000ms, 0825ms total)
T0BC8 000:956 JLINK_ReadMem (0xE00FF000, 0x0020 Bytes, ...) -- CPU is running -- CPU_ReadMem(32 bytes @ 0xE00FF000) - Data: 03 F0 F0 FF 03 20 F0 FF 03 30 F0 FF 03 10 F0 FF ...  returns 0x00 (0002ms, 0827ms total)
T0BC8 000:958 JLINK_ReadMem (0xE000EFF0, 0x0010 Bytes, ...) -- CPU is running -- CPU_ReadMem(16 bytes @ 0xE000EFF0) - Data: 0D 00 00 00 E0 00 00 00 05 00 00 00 B1 00 00 00  returns 0x00 (0001ms, 0828ms total)
T0BC8 000:960 JLINK_ReadMem (0xE000EFD0, 0x0020 Bytes, ...) -- CPU is running -- CPU_ReadMem(32 bytes @ 0xE000EFD0) - Data: 04 00 00 00 00 00 00 00 00 00 00 00 00 00 00 00 ...  returns 0x00 (0001ms, 0830ms total)
T0BC8 000:961 JLINK_ReadMem (0xE0001FF0, 0x0010 Bytes, ...) -- CPU is running -- CPU_ReadMem(16 bytes @ 0xE0001FF0) - Data: 0D 00 00 00 E0 00 00 00 05 00 00 00 B1 00 00 00  returns 0x00 (0002ms, 0832ms total)
T0BC8 000:963 JLINK_ReadMem (0xE0001FD0, 0x0020 Bytes, ...) -- CPU is running -- CPU_ReadMem(32 bytes @ 0xE0001FD0) - Data: 04 00 00 00 00 00 00 00 00 00 00 00 00 00 00 00 ...  returns 0x00 (0002ms, 0834ms total)
T0BC8 000:965 JLINK_ReadMem (0xE0002FF0, 0x0010 Bytes, ...) -- CPU is running -- CPU_ReadMem(16 bytes @ 0xE0002FF0) - Data: 0D 00 00 00 E0 00 00 00 05 00 00 00 B1 00 00 00  returns 0x00 (0001ms, 0835ms total)
T0BC8 000:966 JLINK_ReadMem (0xE0002FD0, 0x0020 Bytes, ...) -- CPU is running -- CPU_ReadMem(32 bytes @ 0xE0002FD0) - Data: 04 00 00 00 00 00 00 00 00 00 00 00 00 00 00 00 ...  returns 0x00 (0002ms, 0837ms total)
T0BC8 000:968 JLINK_ReadMem (0xE0000FF0, 0x0010 Bytes, ...) -- CPU is running -- CPU_ReadMem(16 bytes @ 0xE0000FF0) - Data: 0D 00 00 00 E0 00 00 00 05 00 00 00 B1 00 00 00  returns 0x00 (0001ms, 0838ms total)
T0BC8 000:969 JLINK_ReadMem (0xE0000FD0, 0x0020 Bytes, ...) -- CPU is running -- CPU_ReadMem(32 bytes @ 0xE0000FD0) - Data: 04 00 00 00 00 00 00 00 00 00 00 00 00 00 00 00 ...  returns 0x00 (0002ms, 0840ms total)
T0BC8 000:971 JLINK_ReadMem (0xE0040FF0, 0x0010 Bytes, ...) -- CPU is running -- CPU_ReadMem(16 bytes @ 0xE0040FF0) - Data: 0D 00 00 00 90 00 00 00 05 00 00 00 B1 00 00 00  returns 0x00 (0001ms, 0841ms total)
T0BC8 000:972 JLINK_ReadMem (0xE0040FD0, 0x0020 Bytes, ...) -- CPU is running -- CPU_ReadMem(32 bytes @ 0xE0040FD0) - Data: 04 00 00 00 00 00 00 00 00 00 00 00 00 00 00 00 ...  returns 0x00 (0002ms, 0843ms total)
T0BC8 000:974 JLINK_ReadMemU32(0xE000ED00, 0x0001 Items, ...) -- CPU is running -- CPU_ReadMem(4 bytes @ 0xE000ED00) - Data: 31 C2 1F 41  returns 0x01 (0001ms, 0844ms total)
T0BC8 000:976 JLINK_SetResetType(JLINKARM_RESET_TYPE_NORMAL)  returns JLINKARM_RESET_TYPE_NORMAL (0000ms, 0845ms total)
T0BC8 000:976 JLINK_Reset() -- CPU is running -- CPU_WriteMem(4 bytes @ 0xE000EDF0) -- CPU is running -- CPU_WriteMem(4 bytes @ 0xE000EDFC) >0x35 TIF> -- CPU is running -- CPU_WriteMem(4 bytes @ 0xE000ED0C) -- CPU is running -- CPU_ReadMem(4 bytes @ 0xE000EDF0) -- CPU is running -- CPU_ReadMem(4 bytes @ 0xE000EDF0) -- CPU is running -- CPU_WriteMem(4 bytes @ 0xE000EDF0) -- CPU is running -- CPU_WriteMem(4 bytes @ 0xE000EDFC) -- CPU is running -- CPU_ReadMem(4 bytes @ 0xE000EDF0)
 -- CPU_WriteMem(4 bytes @ 0xE0002000) -- CPU_ReadMem(4 bytes @ 0xE000EDFC) -- CPU_ReadMem(4 bytes @ 0xE0001000) (0023ms, 0868ms total)
T0BC8 000:999 JLINK_Halt()  returns 0x00 (0001ms, 0869ms total)
T0BC8 001:000 JLINK_IsHalted()  returns TRUE (0000ms, 0869ms total)
T0BC8 001:000 JLINK_ReadMemU32(0xE000EDF0, 0x0001 Items, ...) -- CPU_ReadMem(4 bytes @ 0xE000EDF0) - Data: 03 00 03 00  returns 0x01 (0001ms, 0870ms total)
T0BC8 001:001 JLINK_WriteU32(0xE000EDF0, 0xA05F0003) -- CPU_WriteMem(4 bytes @ 0xE000EDF0)  returns 0x00 (0002ms, 0872ms total)
T0BC8 001:003 JLINK_WriteU32(0xE000EDFC, 0x01000000) -- CPU_WriteMem(4 bytes @ 0xE000EDFC)  returns 0x00 (0001ms, 0873ms total)
T0BC8 001:074 JLINK_GetHWStatus(...)  returns 0x00 (0001ms, 0874ms total)
T0BC8 001:108 JLINK_GetNumBPUnits(Type = 0xFFFFFF00)  returns 0x06 (0000ms, 0874ms total)
T0BC8 001:108 JLINK_GetNumBPUnits(Type = 0xF0)  returns 0x2000 (0000ms, 0874ms total)
T0BC8 001:108 JLINK_GetNumWPUnits()  returns 0x04 (0000ms, 0874ms total)
T0BC8 001:130 JLINK_GetSpeed()  returns 0xFA0 (0000ms, 0874ms total)
T0BC8 001:139 JLINK_ReadMemU32(0xE000E004, 0x0001 Items, ...) -- CPU_ReadMem(4 bytes @ 0xE000E004) - Data: 01 00 00 00  returns 0x01 (0002ms, 0876ms total)
T0BC8 001:141 JLINK_ReadMemU32(0xE000E004, 0x0001 Items, ...) -- CPU_ReadMem(4 bytes @ 0xE000E004) - Data: 01 00 00 00  returns 0x01 (0001ms, 0877ms total)
T0BC8 001:142 JLINK_WriteMem(0xE0001000, 0x001C Bytes, ...) - Data: 01 00 00 00 00 00 00 00 00 00 00 00 00 00 00 00 ... -- CPU_WriteMem(28 bytes @ 0xE0001000)  returns 0x1C (0001ms, 0878ms total)
T0BC8 001:143 JLINK_ReadMem (0xE0001000, 0x001C Bytes, ...) -- CPU_ReadMem(28 bytes @ 0xE0001000) - Data: 01 00 00 40 00 00 00 00 00 00 00 00 00 00 00 00 ...  returns 0x00 (0001ms, 0879ms total)
T0BC8 001:144 JLINK_Halt()  returns 0x00 (0000ms, 0879ms total)
T0BC8 001:144 JLINK_IsHalted()  returns TRUE (0000ms, 0879ms total)
T0BC8 001:181 JLINK_WriteMem(0x20000000, 0x0164 Bytes, ...) - Data: 00 BE 0A E0 0D 78 2D 06 68 40 08 24 40 00 00 D3 ... -- CPU_WriteMem(356 bytes @ 0x20000000)  returns 0x164 (0006ms, 0885ms total)
T0BC8 001:187 JLINK_WriteReg(R0, 0x08000000)  returns 0x00 (0000ms, 0885ms total)
T0BC8 001:187 JLINK_WriteReg(R1, 0x00B71B00)  returns 0x00 (0000ms, 0885ms total)
T0BC8 001:187 JLINK_WriteReg(R2, 0x00000001)  returns 0x00 (0000ms, 0885ms total)
T0BC8 001:187 JLINK_WriteReg(R3, 0x00000000)  returns 0x00 (0000ms, 0885ms total)
T0BC8 001:187 JLINK_WriteReg(R4, 0x00000000)  returns 0x00 (0000ms, 0885ms total)
T0BC8 001:187 JLINK_WriteReg(R5, 0x00000000)  returns 0x00 (0000ms, 0885ms total)
T0BC8 001:187 JLINK_WriteReg(R6, 0x00000000)  returns 0x00 (0000ms, 0885ms total)
T0BC8 001:187 JLINK_WriteReg(R7, 0x00000000)  returns 0x00 (0000ms, 0885ms total)
T0BC8 001:187 JLINK_WriteReg(R8, 0x00000000)  returns 0x00 (0000ms, 0885ms total)
T0BC8 001:187 JLINK_WriteReg(R9, 0x20000160)  returns 0x00 (0000ms, 0885ms total)
T0BC8 001:187 JLINK_WriteReg(R10, 0x00000000)  returns 0x00 (0000ms, 0885ms total)
T0BC8 001:187 JLINK_WriteReg(R11, 0x00000000)  returns 0x00 (0000ms, 0885ms total)
T0BC8 001:187 JLINK_WriteReg(R12, 0x00000000)  returns 0x00 (0001ms, 0886ms total)
T0BC8 001:188 JLINK_WriteReg(R13 (SP), 0x20001000)  returns 0x00 (0001ms, 0887ms total)
T0BC8 001:189 JLINK_WriteReg(R14, 0x20000001)  returns 0x00 (0000ms, 0887ms total)
T0BC8 001:189 JLINK_WriteReg(R15 (PC), 0x20000038)  returns 0x00 (0000ms, 0887ms total)
T0BC8 001:189 JLINK_WriteReg(XPSR, 0x01000000)  returns 0x00 (0000ms, 0887ms total)
T0BC8 001:189 JLINK_WriteReg(MSP, 0x20001000)  returns 0x00 (0000ms, 0887ms total)
T0BC8 001:189 JLINK_WriteReg(PSP, 0x20001000)  returns 0x00 (0000ms, 0887ms total)
T0BC8 001:189 JLINK_WriteReg(CFBP, 0x00000000)  returns 0x00 (0000ms, 0887ms total)
T0BC8 001:189 JLINK_SetBPEx(Addr = 0x20000000, Type = 0xFFFFFFF2) -- CPU_ReadMem(2 bytes @ 0x20000000)  returns 0x00000001 (0000ms, 0887ms total)
T0BC8 001:189 JLINK_Go() -- CPU_WriteMem(2 bytes @ 0x20000000) -- CPU_WriteMem(4 bytes @ 0xE0002008) -- CPU_WriteMem(4 bytes @ 0xE000200C) -- CPU_WriteMem(4 bytes @ 0xE0002010) -- CPU_WriteMem(4 bytes @ 0xE0002014) -- CPU_WriteMem(4 bytes @ 0xE0002018) -- CPU_WriteMem(4 bytes @ 0xE000201C) -- CPU_WriteMem(4 bytes @ 0xE0001004) (0008ms, 0895ms total)
T0BC8 001:197 JLINK_IsHalted() -- CPU_ReadMem(2 bytes @ 0x20000000)  returns TRUE (0005ms, 0900ms total)
T0BC8 001:202 JLINK_ReadReg(R15 (PC))  returns 0x20000000 (0000ms, 0895ms total)
T0BC8 001:202 JLINK_ClrBPEx(BPHandle = 0x00000001)  returns 0x00 (0000ms, 0895ms total)
T0BC8 001:202 JLINK_ReadReg(R0)  returns 0x00000000 (0000ms, 0895ms total)
T0BC8 001:203 JLINK_WriteReg(R0, 0x08000000)  returns 0x00 (0000ms, 0895ms total)
T0BC8 001:203 JLINK_WriteReg(R1, 0x00B71B00)  returns 0x00 (0001ms, 0896ms total)
T0BC8 001:204 JLINK_WriteReg(R2, 0x00000001)  returns 0x00 (0000ms, 0896ms total)
T0BC8 001:204 JLINK_WriteReg(R3, 0x00000000)  returns 0x00 (0000ms, 0896ms total)
T0BC8 001:204 JLINK_WriteReg(R4, 0x00000000)  returns 0x00 (0000ms, 0896ms total)
T0BC8 001:204 JLINK_WriteReg(R5, 0x00000000)  returns 0x00 (0000ms, 0896ms total)
T0BC8 001:204 JLINK_WriteReg(R6, 0x00000000)  returns 0x00 (0000ms, 0896ms total)
T0BC8 001:204 JLINK_WriteReg(R7, 0x00000000)  returns 0x00 (0000ms, 0896ms total)
T0BC8 001:204 JLINK_WriteReg(R8, 0x00000000)  returns 0x00 (0000ms, 0896ms total)
T0BC8 001:204 JLINK_WriteReg(R9, 0x20000160)  returns 0x00 (0000ms, 0896ms total)
T0BC8 001:204 JLINK_WriteReg(R10, 0x00000000)  returns 0x00 (0001ms, 0897ms total)
T0BC8 001:205 JLINK_WriteReg(R11, 0x00000000)  returns 0x00 (0000ms, 0897ms total)
T0BC8 001:205 JLINK_WriteReg(R12, 0x00000000)  returns 0x00 (0000ms, 0897ms total)
T0BC8 001:205 JLINK_WriteReg(R13 (SP), 0x20001000)  returns 0x00 (0000ms, 0897ms total)
T0BC8 001:205 JLINK_WriteReg(R14, 0x20000001)  returns 0x00 (0000ms, 0897ms total)
T0BC8 001:205 JLINK_WriteReg(R15 (PC), 0x2000007C)  returns 0x00 (0000ms, 0897ms total)
T0BC8 001:205 JLINK_WriteReg(XPSR, 0x01000000)  returns 0x00 (0000ms, 0897ms total)
T0BC8 001:205 JLINK_WriteReg(MSP, 0x20001000)  returns 0x00 (0000ms, 0897ms total)
T0BC8 001:205 JLINK_WriteReg(PSP, 0x20001000)  returns 0x00 (0000ms, 0897ms total)
T0BC8 001:205 JLINK_WriteReg(CFBP, 0x00000000)  returns 0x00 (0001ms, 0898ms total)
T0BC8 001:206 JLINK_SetBPEx(Addr = 0x20000000, Type = 0xFFFFFFF2)  returns 0x00000002 (0000ms, 0898ms total)
T0BC8 001:206 JLINK_Go() (0002ms, 0900ms total)
T0BC8 001:208 JLINK_IsHalted()  returns FALSE (0001ms, 0901ms total)
T0BC8 001:343 JLINK_IsHalted() -- CPU_ReadMem(2 bytes @ 0x20000000)  returns TRUE (0004ms, 0904ms total)
T0BC8 001:347 JLINK_ReadReg(R15 (PC))  returns 0x20000000 (0000ms, 0900ms total)
T0BC8 001:347 JLINK_ClrBPEx(BPHandle = 0x00000002)  returns 0x00 (0000ms, 0900ms total)
T0BC8 001:347 JLINK_ReadReg(R0)  returns 0x00000000 (0000ms, 0900ms total)
T0BC8 001:399 JLINK_WriteReg(R0, 0x00000001)  returns 0x00 (0000ms, 0900ms total)
T0BC8 001:399 JLINK_WriteReg(R1, 0x00B71B00)  returns 0x00 (0000ms, 0900ms total)
T0BC8 001:399 JLINK_WriteReg(R2, 0x00000001)  returns 0x00 (0001ms, 0901ms total)
T0BC8 001:400 JLINK_WriteReg(R3, 0x00000000)  returns 0x00 (0000ms, 0901ms total)
T0BC8 001:400 JLINK_WriteReg(R4, 0x00000000)  returns 0x00 (0000ms, 0901ms total)
T0BC8 001:400 JLINK_WriteReg(R5, 0x00000000)  returns 0x00 (0000ms, 0901ms total)
T0BC8 001:400 JLINK_WriteReg(R6, 0x00000000)  returns 0x00 (0000ms, 0901ms total)
T0BC8 001:400 JLINK_WriteReg(R7, 0x00000000)  returns 0x00 (0000ms, 0901ms total)
T0BC8 001:400 JLINK_WriteReg(R8, 0x00000000)  returns 0x00 (0000ms, 0901ms total)
T0BC8 001:400 JLINK_WriteReg(R9, 0x20000160)  returns 0x00 (0000ms, 0901ms total)
T0BC8 001:400 JLINK_WriteReg(R10, 0x00000000)  returns 0x00 (0000ms, 0901ms total)
T0BC8 001:401 JLINK_WriteReg(R11, 0x00000000)  returns 0x00 (0000ms, 0902ms total)
T0BC8 001:401 JLINK_WriteReg(R12, 0x00000000)  returns 0x00 (0000ms, 0902ms total)
T0BC8 001:401 JLINK_WriteReg(R13 (SP), 0x20001000)  returns 0x00 (0000ms, 0902ms total)
T0BC8 001:401 JLINK_WriteReg(R14, 0x20000001)  returns 0x00 (0000ms, 0902ms total)
T0BC8 001:401 JLINK_WriteReg(R15 (PC), 0x2000006A)  returns 0x00 (0000ms, 0902ms total)
T0BC8 001:401 JLINK_WriteReg(XPSR, 0x01000000)  returns 0x00 (0000ms, 0902ms total)
T0BC8 001:401 JLINK_WriteReg(MSP, 0x20001000)  returns 0x00 (0000ms, 0902ms total)
T0BC8 001:401 JLINK_WriteReg(PSP, 0x20001000)  returns 0x00 (0000ms, 0902ms total)
T0BC8 001:401 JLINK_WriteReg(CFBP, 0x00000000)  returns 0x00 (0001ms, 0903ms total)
T0BC8 001:402 JLINK_SetBPEx(Addr = 0x20000000, Type = 0xFFFFFFF2)  returns 0x00000003 (0000ms, 0903ms total)
T0BC8 001:402 JLINK_Go() (0002ms, 0905ms total)
T0BC8 001:404 JLINK_IsHalted() -- CPU_ReadMem(2 bytes @ 0x20000000)  returns TRUE (0005ms, 0910ms total)
T0BC8 001:409 JLINK_ReadReg(R15 (PC))  returns 0x20000000 (0000ms, 0905ms total)
T0BC8 001:409 JLINK_ClrBPEx(BPHandle = 0x00000003)  returns 0x00 (0000ms, 0905ms total)
T0BC8 001:409 JLINK_ReadReg(R0)  returns 0x00000000 (0000ms, 0905ms total)
T0BC8 001:431 JLINK_WriteMem(0x20000000, 0x0164 Bytes, ...) - Data: 00 BE 0A E0 0D 78 2D 06 68 40 08 24 40 00 00 D3 ... -- CPU_WriteMem(356 bytes @ 0x20000000)  returns 0x164 (0006ms, 0911ms total)
T0BC8 001:437 JLINK_WriteReg(R0, 0x08000000)  returns 0x00 (0000ms, 0911ms total)
T0BC8 001:437 JLINK_WriteReg(R1, 0x00B71B00)  returns 0x00 (0000ms, 0911ms total)
T0BC8 001:437 JLINK_WriteReg(R2, 0x00000002)  returns 0x00 (0000ms, 0911ms total)
T0BC8 001:437 JLINK_WriteReg(R3, 0x00000000)  returns 0x00 (0000ms, 0911ms total)
T0BC8 001:438 JLINK_WriteReg(R4, 0x00000000)  returns 0x00 (0000ms, 0912ms total)
T0BC8 001:438 JLINK_WriteReg(R5, 0x00000000)  returns 0x00 (0000ms, 0912ms total)
T0BC8 001:438 JLINK_WriteReg(R6, 0x00000000)  returns 0x00 (0000ms, 0912ms total)
T0BC8 001:438 JLINK_WriteReg(R7, 0x00000000)  returns 0x00 (0000ms, 0912ms total)
T0BC8 001:438 JLINK_WriteReg(R8, 0x00000000)  returns 0x00 (0000ms, 0912ms total)
T0BC8 001:438 JLINK_WriteReg(R9, 0x20000160)  returns 0x00 (0001ms, 0913ms total)
T0BC8 001:439 JLINK_WriteReg(R10, 0x00000000)  returns 0x00 (0000ms, 0913ms total)
T0BC8 001:439 JLINK_WriteReg(R11, 0x00000000)  returns 0x00 (0000ms, 0913ms total)
T0BC8 001:439 JLINK_WriteReg(R12, 0x00000000)  returns 0x00 (0000ms, 0913ms total)
T0BC8 001:439 JLINK_WriteReg(R13 (SP), 0x20001000)  returns 0x00 (0000ms, 0913ms total)
T0BC8 001:439 JLINK_WriteReg(R14, 0x20000001)  returns 0x00 (0000ms, 0913ms total)
T0BC8 001:439 JLINK_WriteReg(R15 (PC), 0x20000038)  returns 0x00 (0000ms, 0913ms total)
T0BC8 001:440 JLINK_WriteReg(XPSR, 0x01000000)  returns 0x00 (0000ms, 0914ms total)
T0BC8 001:440 JLINK_WriteReg(MSP, 0x20001000)  returns 0x00 (0000ms, 0914ms total)
T0BC8 001:440 JLINK_WriteReg(PSP, 0x20001000)  returns 0x00 (0000ms, 0914ms total)
T0BC8 001:440 JLINK_WriteReg(CFBP, 0x00000000)  returns 0x00 (0000ms, 0914ms total)
T0BC8 001:440 JLINK_SetBPEx(Addr = 0x20000000, Type = 0xFFFFFFF2) -- CPU_ReadMem(2 bytes @ 0x20000000)  returns 0x00000004 (0001ms, 0915ms total)
T0BC8 001:441 JLINK_Go() -- CPU_WriteMem(2 bytes @ 0x20000000) (0003ms, 0918ms total)
T0BC8 001:445 JLINK_IsHalted() -- CPU_ReadMem(2 bytes @ 0x20000000)  returns TRUE (0005ms, 0924ms total)
T0BC8 001:450 JLINK_ReadReg(R15 (PC))  returns 0x20000000 (0000ms, 0919ms total)
T0BC8 001:450 JLINK_ClrBPEx(BPHandle = 0x00000004)  returns 0x00 (0000ms, 0919ms total)
T0BC8 001:450 JLINK_ReadReg(R0)  returns 0x00000000 (0000ms, 0919ms total)
T0BC8 001:451 JLINK_WriteMem(0x20000164, 0x0400 Bytes, ...) - Data: 08 3D 00 20 0D 30 00 08 65 0C 00 08 67 0C 00 08 ... -- CPU_WriteMem(1024 bytes @ 0x20000164)  returns 0x400 (0013ms, 0932ms total)
T0BC8 001:464 JLINK_WriteReg(R0, 0x08000000)  returns 0x00 (0000ms, 0932ms total)
T0BC8 001:464 JLINK_WriteReg(R1, 0x00000400)  returns 0x00 (0000ms, 0932ms total)
T0BC8 001:464 JLINK_WriteReg(R2, 0x20000164)  returns 0x00 (0000ms, 0932ms total)
T0BC8 001:464 JLINK_WriteReg(R3, 0x00000000)  returns 0x00 (0001ms, 0933ms total)
T0BC8 001:465 JLINK_WriteReg(R4, 0x00000000)  returns 0x00 (0000ms, 0933ms total)
T0BC8 001:465 JLINK_WriteReg(R5, 0x00000000)  returns 0x00 (0000ms, 0933ms total)
T0BC8 001:465 JLINK_WriteReg(R6, 0x00000000)  returns 0x00 (0000ms, 0933ms total)
T0BC8 001:465 JLINK_WriteReg(R7, 0x00000000)  returns 0x00 (0000ms, 0933ms total)
T0BC8 001:465 JLINK_WriteReg(R8, 0x00000000)  returns 0x00 (0000ms, 0933ms total)
T0BC8 001:465 JLINK_WriteReg(R9, 0x20000160)  returns 0x00 (0001ms, 0934ms total)
T0BC8 001:466 JLINK_WriteReg(R10, 0x00000000)  returns 0x00 (0000ms, 0934ms total)
T0BC8 001:466 JLINK_WriteReg(R11, 0x00000000)  returns 0x00 (0000ms, 0934ms total)
T0BC8 001:466 JLINK_WriteReg(R12, 0x00000000)  returns 0x00 (0000ms, 0934ms total)
T0BC8 001:466 JLINK_WriteReg(R13 (SP), 0x20001000)  returns 0x00 (0000ms, 0934ms total)
T0BC8 001:466 JLINK_WriteReg(R14, 0x20000001)  returns 0x00 (0000ms, 0934ms total)
T0BC8 001:466 JLINK_WriteReg(R15 (PC), 0x200000F4)  returns 0x00 (0001ms, 0935ms total)
T0BC8 001:467 JLINK_WriteReg(XPSR, 0x01000000)  returns 0x00 (0000ms, 0935ms total)
T0BC8 001:467 JLINK_WriteReg(MSP, 0x20001000)  returns 0x00 (0000ms, 0935ms total)
T0BC8 001:467 JLINK_WriteReg(PSP, 0x20001000)  returns 0x00 (0000ms, 0935ms total)
T0BC8 001:467 JLINK_WriteReg(CFBP, 0x00000000)  returns 0x00 (0000ms, 0935ms total)
T0BC8 001:467 JLINK_SetBPEx(Addr = 0x20000000, Type = 0xFFFFFFF2)  returns 0x00000005 (0001ms, 0936ms total)
T0BC8 001:468 JLINK_Go() (0002ms, 0938ms total)
T0BC8 001:470 JLINK_IsHalted()  returns FALSE (0001ms, 0939ms total)
T0BC8 001:540 JLINK_IsHalted() -- CPU_ReadMem(2 bytes @ 0x20000000)  returns TRUE (0003ms, 0941ms total)
T0BC8 001:543 JLINK_ReadReg(R15 (PC))  returns 0x20000000 (0001ms, 0939ms total)
T0BC8 001:544 JLINK_ClrBPEx(BPHandle = 0x00000005)  returns 0x00 (0000ms, 0939ms total)
T0BC8 001:544 JLINK_ReadReg(R0)  returns 0x00000000 (0000ms, 0939ms total)
T0BC8 001:545 JLINK_WriteMem(0x20000164, 0x0400 Bytes, ...) - Data: 06 90 01 E0 01 20 06 90 7C 48 80 7F 10 B1 01 28 ... -- CPU_WriteMem(1024 bytes @ 0x20000164)  returns 0x400 (0013ms, 0952ms total)
T0BC8 001:558 JLINK_WriteReg(R0, 0x08000400)  returns 0x00 (0000ms, 0952ms total)
T0BC8 001:558 JLINK_WriteReg(R1, 0x00000400)  returns 0x00 (0000ms, 0952ms total)
T0BC8 001:558 JLINK_WriteReg(R2, 0x20000164)  returns 0x00 (0000ms, 0952ms total)
T0BC8 001:559 JLINK_WriteReg(R3, 0x00000000)  returns 0x00 (0000ms, 0953ms total)
T0BC8 001:559 JLINK_WriteReg(R4, 0x00000000)  returns 0x00 (0000ms, 0953ms total)
T0BC8 001:559 JLINK_WriteReg(R5, 0x00000000)  returns 0x00 (0000ms, 0953ms total)
T0BC8 001:559 JLINK_WriteReg(R6, 0x00000000)  returns 0x00 (0000ms, 0953ms total)
T0BC8 001:559 JLINK_WriteReg(R7, 0x00000000)  returns 0x00 (0001ms, 0954ms total)
T0BC8 001:560 JLINK_WriteReg(R8, 0x00000000)  returns 0x00 (0001ms, 0955ms total)
T0BC8 001:561 JLINK_WriteReg(R9, 0x20000160)  returns 0x00 (0000ms, 0955ms total)
T0BC8 001:561 JLINK_WriteReg(R10, 0x00000000)  returns 0x00 (0000ms, 0955ms total)
T0BC8 001:561 JLINK_WriteReg(R11, 0x00000000)  returns 0x00 (0000ms, 0955ms total)
T0BC8 001:561 JLINK_WriteReg(R12, 0x00000000)  returns 0x00 (0000ms, 0955ms total)
T0BC8 001:561 JLINK_WriteReg(R13 (SP), 0x20001000)  returns 0x00 (0000ms, 0955ms total)
T0BC8 001:561 JLINK_WriteReg(R14, 0x20000001)  returns 0x00 (0000ms, 0955ms total)
T0BC8 001:561 JLINK_WriteReg(R15 (PC), 0x200000F4)  returns 0x00 (0000ms, 0955ms total)
T0BC8 001:561 JLINK_WriteReg(XPSR, 0x01000000)  returns 0x00 (0000ms, 0955ms total)
T0BC8 001:561 JLINK_WriteReg(MSP, 0x20001000)  returns 0x00 (0000ms, 0955ms total)
T0BC8 001:561 JLINK_WriteReg(PSP, 0x20001000)  returns 0x00 (0000ms, 0955ms total)
T0BC8 001:562 JLINK_WriteReg(CFBP, 0x00000000)  returns 0x00 (0000ms, 0956ms total)
T0BC8 001:562 JLINK_SetBPEx(Addr = 0x20000000, Type = 0xFFFFFFF2)  returns 0x00000006 (0000ms, 0956ms total)
T0BC8 001:562 JLINK_Go() (0003ms, 0959ms total)
T0BC8 001:565 JLINK_IsHalted()  returns FALSE (0001ms, 0960ms total)
T0BC8 001:574 JLINK_IsHalted()  returns FALSE (0001ms, 0960ms total)
T0BC8 001:577 JLINK_IsHalted()  returns FALSE (0001ms, 0960ms total)
T0BC8 001:597 JLINK_IsHalted() -- CPU_ReadMem(2 bytes @ 0x20000000)  returns TRUE (0004ms, 0963ms total)
T0BC8 001:601 JLINK_ReadReg(R15 (PC))  returns 0x20000000 (0000ms, 0959ms total)
T0BC8 001:601 JLINK_ClrBPEx(BPHandle = 0x00000006)  returns 0x00 (0000ms, 0959ms total)
T0BC8 001:601 JLINK_ReadReg(R0)  returns 0x00000000 (0000ms, 0959ms total)
T0BC8 001:602 JLINK_WriteMem(0x20000164, 0x0400 Bytes, ...) - Data: 00 22 A0 4B 09 F0 4E F9 00 22 A0 4B CD E9 00 01 ... -- CPU_WriteMem(1024 bytes @ 0x20000164)  returns 0x400 (0013ms, 0972ms total)
T0BC8 001:615 JLINK_WriteReg(R0, 0x08000800)  returns 0x00 (0000ms, 0972ms total)
T0BC8 001:615 JLINK_WriteReg(R1, 0x00000400)  returns 0x00 (0000ms, 0972ms total)
T0BC8 001:616 JLINK_WriteReg(R2, 0x20000164)  returns 0x00 (0000ms, 0973ms total)
T0BC8 001:616 JLINK_WriteReg(R3, 0x00000000)  returns 0x00 (0000ms, 0973ms total)
T0BC8 001:616 JLINK_WriteReg(R4, 0x00000000)  returns 0x00 (0000ms, 0973ms total)
T0BC8 001:616 JLINK_WriteReg(R5, 0x00000000)  returns 0x00 (0000ms, 0973ms total)
T0BC8 001:616 JLINK_WriteReg(R6, 0x00000000)  returns 0x00 (0000ms, 0973ms total)
T0BC8 001:616 JLINK_WriteReg(R7, 0x00000000)  returns 0x00 (0000ms, 0973ms total)
T0BC8 001:617 JLINK_WriteReg(R8, 0x00000000)  returns 0x00 (0000ms, 0974ms total)
T0BC8 001:617 JLINK_WriteReg(R9, 0x20000160)  returns 0x00 (0000ms, 0974ms total)
T0BC8 001:617 JLINK_WriteReg(R10, 0x00000000)  returns 0x00 (0000ms, 0974ms total)
T0BC8 001:617 JLINK_WriteReg(R11, 0x00000000)  returns 0x00 (0000ms, 0974ms total)
T0BC8 001:617 JLINK_WriteReg(R12, 0x00000000)  returns 0x00 (0000ms, 0974ms total)
T0BC8 001:617 JLINK_WriteReg(R13 (SP), 0x20001000)  returns 0x00 (0000ms, 0974ms total)
T0BC8 001:617 JLINK_WriteReg(R14, 0x20000001)  returns 0x00 (0001ms, 0975ms total)
T0BC8 001:618 JLINK_WriteReg(R15 (PC), 0x200000F4)  returns 0x00 (0000ms, 0975ms total)
T0BC8 001:618 JLINK_WriteReg(XPSR, 0x01000000)  returns 0x00 (0000ms, 0975ms total)
T0BC8 001:618 JLINK_WriteReg(MSP, 0x20001000)  returns 0x00 (0000ms, 0975ms total)
T0BC8 001:618 JLINK_WriteReg(PSP, 0x20001000)  returns 0x00 (0000ms, 0975ms total)
T0BC8 001:618 JLINK_WriteReg(CFBP, 0x00000000)  returns 0x00 (0000ms, 0975ms total)
T0BC8 001:618 JLINK_SetBPEx(Addr = 0x20000000, Type = 0xFFFFFFF2)  returns 0x00000007 (0000ms, 0975ms total)
T0BC8 001:618 JLINK_Go() (0003ms, 0978ms total)
T0BC8 001:621 JLINK_IsHalted()  returns FALSE (0001ms, 0979ms total)
T0BC8 001:643 JLINK_IsHalted()  returns FALSE (0000ms, 0978ms total)
T0BC8 001:650 JLINK_IsHalted()  returns FALSE (0000ms, 0978ms total)
T0BC8 001:652 JLINK_IsHalted() -- CPU_ReadMem(2 bytes @ 0x20000000)  returns TRUE (0004ms, 0982ms total)
T0BC8 001:657 JLINK_ReadReg(R15 (PC))  returns 0x20000000 (0000ms, 0978ms total)
T0BC8 001:657 JLINK_ClrBPEx(BPHandle = 0x00000007)  returns 0x00 (0000ms, 0978ms total)
T0BC8 001:657 JLINK_ReadReg(R0)  returns 0x00000000 (0000ms, 0978ms total)
T0BC8 001:659 JLINK_WriteMem(0x20000164, 0x0400 Bytes, ...) - Data: 04 F0 67 FC 0A 23 16 4A 00 21 AF F2 F9 00 06 F0 ... -- CPU_WriteMem(1024 bytes @ 0x20000164)  returns 0x400 (0013ms, 0991ms total)
T0BC8 001:672 JLINK_WriteReg(R0, 0x08000C00)  returns 0x00 (0000ms, 0991ms total)
T0BC8 001:672 JLINK_WriteReg(R1, 0x00000400)  returns 0x00 (0001ms, 0992ms total)
T0BC8 001:673 JLINK_WriteReg(R2, 0x20000164)  returns 0x00 (0000ms, 0992ms total)
T0BC8 001:673 JLINK_WriteReg(R3, 0x00000000)  returns 0x00 (0000ms, 0992ms total)
T0BC8 001:673 JLINK_WriteReg(R4, 0x00000000)  returns 0x00 (0000ms, 0992ms total)
T0BC8 001:673 JLINK_WriteReg(R5, 0x00000000)  returns 0x00 (0000ms, 0992ms total)
T0BC8 001:673 JLINK_WriteReg(R6, 0x00000000)  returns 0x00 (0001ms, 0993ms total)
T0BC8 001:674 JLINK_WriteReg(R7, 0x00000000)  returns 0x00 (0000ms, 0993ms total)
T0BC8 001:674 JLINK_WriteReg(R8, 0x00000000)  returns 0x00 (0000ms, 0993ms total)
T0BC8 001:674 JLINK_WriteReg(R9, 0x20000160)  returns 0x00 (0000ms, 0993ms total)
T0BC8 001:674 JLINK_WriteReg(R10, 0x00000000)  returns 0x00 (0000ms, 0993ms total)
T0BC8 001:674 JLINK_WriteReg(R11, 0x00000000)  returns 0x00 (0001ms, 0994ms total)
T0BC8 001:675 JLINK_WriteReg(R12, 0x00000000)  returns 0x00 (0000ms, 0994ms total)
T0BC8 001:675 JLINK_WriteReg(R13 (SP), 0x20001000)  returns 0x00 (0000ms, 0994ms total)
T0BC8 001:675 JLINK_WriteReg(R14, 0x20000001)  returns 0x00 (0000ms, 0994ms total)
T0BC8 001:675 JLINK_WriteReg(R15 (PC), 0x200000F4)  returns 0x00 (0001ms, 0995ms total)
T0BC8 001:676 JLINK_WriteReg(XPSR, 0x01000000)  returns 0x00 (0000ms, 0995ms total)
T0BC8 001:676 JLINK_WriteReg(MSP, 0x20001000)  returns 0x00 (0000ms, 0995ms total)
T0BC8 001:676 JLINK_WriteReg(PSP, 0x20001000)  returns 0x00 (0000ms, 0995ms total)
T0BC8 001:676 JLINK_WriteReg(CFBP, 0x00000000)  returns 0x00 (0000ms, 0995ms total)
T0BC8 001:676 JLINK_SetBPEx(Addr = 0x20000000, Type = 0xFFFFFFF2)  returns 0x00000008 (0001ms, 0996ms total)
T0BC8 001:677 JLINK_Go() (0002ms, 0998ms total)
T0BC8 001:679 JLINK_IsHalted()  returns FALSE (0001ms, 0999ms total)
T0BC8 001:689 JLINK_IsHalted()  returns FALSE (0001ms, 0999ms total)
T0BC8 001:692 JLINK_IsHalted()  returns FALSE (0001ms, 0999ms total)
T0BC8 001:714 JLINK_IsHalted() -- CPU_ReadMem(2 bytes @ 0x20000000)  returns TRUE (0005ms, 1003ms total)
T0BC8 001:719 JLINK_ReadReg(R15 (PC))  returns 0x20000000 (0000ms, 0998ms total)
T0BC8 001:719 JLINK_ClrBPEx(BPHandle = 0x00000008)  returns 0x00 (0000ms, 0998ms total)
T0BC8 001:719 JLINK_ReadReg(R0)  returns 0x00000000 (0000ms, 0998ms total)
T0BC8 001:720 JLINK_WriteMem(0x20000164, 0x0400 Bytes, ...) - Data: 05 EB 10 60 02 12 9A A0 06 F0 DE FA 70 BD 70 B5 ... -- CPU_WriteMem(1024 bytes @ 0x20000164)  returns 0x400 (0013ms, 1011ms total)
T0BC8 001:733 JLINK_WriteReg(R0, 0x08001000)  returns 0x00 (0001ms, 1012ms total)
T0BC8 001:734 JLINK_WriteReg(R1, 0x00000400)  returns 0x00 (0000ms, 1012ms total)
T0BC8 001:734 JLINK_WriteReg(R2, 0x20000164)  returns 0x00 (0000ms, 1012ms total)
T0BC8 001:734 JLINK_WriteReg(R3, 0x00000000)  returns 0x00 (0000ms, 1012ms total)
T0BC8 001:734 JLINK_WriteReg(R4, 0x00000000)  returns 0x00 (0000ms, 1012ms total)
T0BC8 001:734 JLINK_WriteReg(R5, 0x00000000)  returns 0x00 (0000ms, 1012ms total)
T0BC8 001:734 JLINK_WriteReg(R6, 0x00000000)  returns 0x00 (0001ms, 1013ms total)
T0BC8 001:735 JLINK_WriteReg(R7, 0x00000000)  returns 0x00 (0000ms, 1013ms total)
T0BC8 001:735 JLINK_WriteReg(R8, 0x00000000)  returns 0x00 (0000ms, 1013ms total)
T0BC8 001:735 JLINK_WriteReg(R9, 0x20000160)  returns 0x00 (0000ms, 1013ms total)
T0BC8 001:736 JLINK_WriteReg(R10, 0x00000000)  returns 0x00 (0000ms, 1014ms total)
T0BC8 001:736 JLINK_WriteReg(R11, 0x00000000)  returns 0x00 (0000ms, 1014ms total)
T0BC8 001:736 JLINK_WriteReg(R12, 0x00000000)  returns 0x00 (0000ms, 1014ms total)
T0BC8 001:736 JLINK_WriteReg(R13 (SP), 0x20001000)  returns 0x00 (0001ms, 1015ms total)
T0BC8 001:737 JLINK_WriteReg(R14, 0x20000001)  returns 0x00 (0000ms, 1015ms total)
T0BC8 001:737 JLINK_WriteReg(R15 (PC), 0x200000F4)  returns 0x00 (0000ms, 1015ms total)
T0BC8 001:737 JLINK_WriteReg(XPSR, 0x01000000)  returns 0x00 (0000ms, 1015ms total)
T0BC8 001:737 JLINK_WriteReg(MSP, 0x20001000)  returns 0x00 (0000ms, 1015ms total)
T0BC8 001:737 JLINK_WriteReg(PSP, 0x20001000)  returns 0x00 (0001ms, 1016ms total)
T0BC8 001:738 JLINK_WriteReg(CFBP, 0x00000000)  returns 0x00 (0000ms, 1016ms total)
T0BC8 001:738 JLINK_SetBPEx(Addr = 0x20000000, Type = 0xFFFFFFF2)  returns 0x00000009 (0000ms, 1016ms total)
T0BC8 001:738 JLINK_Go() (0002ms, 1018ms total)
T0BC8 001:741 JLINK_IsHalted()  returns FALSE (0001ms, 1020ms total)
T0BC8 001:755 JLINK_IsHalted()  returns FALSE (0000ms, 1019ms total)
T0BC8 001:762 JLINK_IsHalted()  returns FALSE (0001ms, 1020ms total)
T0BC8 001:764 JLINK_IsHalted()  returns FALSE (0001ms, 1020ms total)
T0BC8 001:767 JLINK_IsHalted()  returns FALSE (0001ms, 1020ms total)
T0BC8 001:774 JLINK_IsHalted() -- CPU_ReadMem(2 bytes @ 0x20000000)  returns TRUE (0004ms, 1023ms total)
T0BC8 001:778 JLINK_ReadReg(R15 (PC))  returns 0x20000000 (0000ms, 1019ms total)
T0BC8 001:778 JLINK_ClrBPEx(BPHandle = 0x00000009)  returns 0x00 (0000ms, 1019ms total)
T0BC8 001:778 JLINK_ReadReg(R0)  returns 0x00000000 (0000ms, 1019ms total)
T0BC8 001:779 JLINK_WriteMem(0x20000164, 0x0400 Bytes, ...) - Data: 6B FE 07 D8 00 22 91 4B 8F 49 03 C9 08 F0 8C FF ... -- CPU_WriteMem(1024 bytes @ 0x20000164)  returns 0x400 (0013ms, 1032ms total)
T0BC8 001:792 JLINK_WriteReg(R0, 0x08001400)  returns 0x00 (0000ms, 1032ms total)
T0BC8 001:792 JLINK_WriteReg(R1, 0x00000400)  returns 0x00 (0000ms, 1032ms total)
T0BC8 001:792 JLINK_WriteReg(R2, 0x20000164)  returns 0x00 (0001ms, 1033ms total)
T0BC8 001:793 JLINK_WriteReg(R3, 0x00000000)  returns 0x00 (0000ms, 1033ms total)
T0BC8 001:793 JLINK_WriteReg(R4, 0x00000000)  returns 0x00 (0000ms, 1033ms total)
T0BC8 001:793 JLINK_WriteReg(R5, 0x00000000)  returns 0x00 (0000ms, 1033ms total)
T0BC8 001:793 JLINK_WriteReg(R6, 0x00000000)  returns 0x00 (0000ms, 1033ms total)
T0BC8 001:793 JLINK_WriteReg(R7, 0x00000000)  returns 0x00 (0000ms, 1033ms total)
T0BC8 001:794 JLINK_WriteReg(R8, 0x00000000)  returns 0x00 (0000ms, 1034ms total)
T0BC8 001:794 JLINK_WriteReg(R9, 0x20000160)  returns 0x00 (0000ms, 1034ms total)
T0BC8 001:794 JLINK_WriteReg(R10, 0x00000000)  returns 0x00 (0000ms, 1034ms total)
T0BC8 001:794 JLINK_WriteReg(R11, 0x00000000)  returns 0x00 (0000ms, 1034ms total)
T0BC8 001:794 JLINK_WriteReg(R12, 0x00000000)  returns 0x00 (0000ms, 1034ms total)
T0BC8 001:794 JLINK_WriteReg(R13 (SP), 0x20001000)  returns 0x00 (0000ms, 1034ms total)
T0BC8 001:794 JLINK_WriteReg(R14, 0x20000001)  returns 0x00 (0000ms, 1034ms total)
T0BC8 001:795 JLINK_WriteReg(R15 (PC), 0x200000F4)  returns 0x00 (0000ms, 1035ms total)
T0BC8 001:795 JLINK_WriteReg(XPSR, 0x01000000)  returns 0x00 (0000ms, 1035ms total)
T0BC8 001:795 JLINK_WriteReg(MSP, 0x20001000)  returns 0x00 (0000ms, 1035ms total)
T0BC8 001:795 JLINK_WriteReg(PSP, 0x20001000)  returns 0x00 (0000ms, 1035ms total)
T0BC8 001:795 JLINK_WriteReg(CFBP, 0x00000000)  returns 0x00 (0000ms, 1035ms total)
T0BC8 001:795 JLINK_SetBPEx(Addr = 0x20000000, Type = 0xFFFFFFF2)  returns 0x0000000A (0000ms, 1035ms total)
T0BC8 001:795 JLINK_Go() (0003ms, 1038ms total)
T0BC8 001:798 JLINK_IsHalted()  returns FALSE (0001ms, 1039ms total)
T0BC8 001:819 JLINK_IsHalted()  returns FALSE (0001ms, 1039ms total)
T0BC8 001:826 JLINK_IsHalted()  returns FALSE (0001ms, 1039ms total)
T0BC8 001:829 JLINK_IsHalted() -- CPU_ReadMem(2 bytes @ 0x20000000)  returns TRUE (0004ms, 1042ms total)
T0BC8 001:833 JLINK_ReadReg(R15 (PC))  returns 0x20000000 (0000ms, 1038ms total)
T0BC8 001:833 JLINK_ClrBPEx(BPHandle = 0x0000000A)  returns 0x00 (0000ms, 1038ms total)
T0BC8 001:833 JLINK_ReadReg(R0)  returns 0x00000000 (0001ms, 1039ms total)
T0BC8 001:834 JLINK_WriteMem(0x20000164, 0x0400 Bytes, ...) - Data: AA 4B 9B 69 98 60 01 2A 03 D1 00 20 A7 4B 5B 69 ... -- CPU_WriteMem(1024 bytes @ 0x20000164)  returns 0x400 (0013ms, 1052ms total)
T0BC8 001:847 JLINK_WriteReg(R0, 0x08001800)  returns 0x00 (0000ms, 1052ms total)
T0BC8 001:847 JLINK_WriteReg(R1, 0x00000400)  returns 0x00 (0000ms, 1052ms total)
T0BC8 001:847 JLINK_WriteReg(R2, 0x20000164)  returns 0x00 (0000ms, 1052ms total)
T0BC8 001:847 JLINK_WriteReg(R3, 0x00000000)  returns 0x00 (0001ms, 1053ms total)
T0BC8 001:848 JLINK_WriteReg(R4, 0x00000000)  returns 0x00 (0000ms, 1053ms total)
T0BC8 001:848 JLINK_WriteReg(R5, 0x00000000)  returns 0x00 (0000ms, 1053ms total)
T0BC8 001:848 JLINK_WriteReg(R6, 0x00000000)  returns 0x00 (0000ms, 1053ms total)
T0BC8 001:848 JLINK_WriteReg(R7, 0x00000000)  returns 0x00 (0000ms, 1053ms total)
T0BC8 001:848 JLINK_WriteReg(R8, 0x00000000)  returns 0x00 (0000ms, 1053ms total)
T0BC8 001:848 JLINK_WriteReg(R9, 0x20000160)  returns 0x00 (0000ms, 1053ms total)
T0BC8 001:848 JLINK_WriteReg(R10, 0x00000000)  returns 0x00 (0000ms, 1053ms total)
T0BC8 001:848 JLINK_WriteReg(R11, 0x00000000)  returns 0x00 (0000ms, 1053ms total)
T0BC8 001:848 JLINK_WriteReg(R12, 0x00000000)  returns 0x00 (0000ms, 1053ms total)
T0BC8 001:848 JLINK_WriteReg(R13 (SP), 0x20001000)  returns 0x00 (0000ms, 1053ms total)
T0BC8 001:848 JLINK_WriteReg(R14, 0x20000001)  returns 0x00 (0000ms, 1053ms total)
T0BC8 001:848 JLINK_WriteReg(R15 (PC), 0x200000F4)  returns 0x00 (0000ms, 1053ms total)
T0BC8 001:848 JLINK_WriteReg(XPSR, 0x01000000)  returns 0x00 (0001ms, 1054ms total)
T0BC8 001:849 JLINK_WriteReg(MSP, 0x20001000)  returns 0x00 (0000ms, 1054ms total)
T0BC8 001:849 JLINK_WriteReg(PSP, 0x20001000)  returns 0x00 (0000ms, 1054ms total)
T0BC8 001:849 JLINK_WriteReg(CFBP, 0x00000000)  returns 0x00 (0000ms, 1054ms total)
T0BC8 001:849 JLINK_SetBPEx(Addr = 0x20000000, Type = 0xFFFFFFF2)  returns 0x0000000B (0000ms, 1054ms total)
T0BC8 001:849 JLINK_Go() (0002ms, 1056ms total)
T0BC8 001:851 JLINK_IsHalted()  returns FALSE (0001ms, 1057ms total)
T0BC8 001:859 JLINK_IsHalted()  returns FALSE (0000ms, 1056ms total)
T0BC8 001:862 JLINK_IsHalted()  returns FALSE (0000ms, 1056ms total)
T0BC8 001:864 JLINK_IsHalted()  returns FALSE (0000ms, 1056ms total)
T0BC8 001:872 JLINK_IsHalted()  returns FALSE (0000ms, 1056ms total)
T0BC8 001:874 JLINK_IsHalted()  returns FALSE (0000ms, 1056ms total)
T0BC8 001:876 JLINK_IsHalted()  returns FALSE (0000ms, 1056ms total)
T0BC8 001:878 JLINK_IsHalted()  returns FALSE (0000ms, 1056ms total)
T0BC8 001:883 JLINK_IsHalted() -- CPU_ReadMem(2 bytes @ 0x20000000)  returns TRUE (0004ms, 1060ms total)
T0BC8 001:887 JLINK_ReadReg(R15 (PC))  returns 0x20000000 (0000ms, 1056ms total)
T0BC8 001:887 JLINK_ClrBPEx(BPHandle = 0x0000000B)  returns 0x00 (0000ms, 1056ms total)
T0BC8 001:887 JLINK_ReadReg(R0)  returns 0x00000000 (0000ms, 1056ms total)
T0BC8 001:887 JLINK_WriteMem(0x20000164, 0x0400 Bytes, ...) - Data: AF 48 05 61 80 7F 78 BB AE 4B 1A 1F AE 49 40 46 ... -- CPU_WriteMem(1024 bytes @ 0x20000164)  returns 0x400 (0014ms, 1070ms total)
T0BC8 001:901 JLINK_WriteReg(R0, 0x08001C00)  returns 0x00 (0000ms, 1070ms total)
T0BC8 001:901 JLINK_WriteReg(R1, 0x00000400)  returns 0x00 (0000ms, 1070ms total)
T0BC8 001:901 JLINK_WriteReg(R2, 0x20000164)  returns 0x00 (0000ms, 1070ms total)
T0BC8 001:901 JLINK_WriteReg(R3, 0x00000000)  returns 0x00 (0000ms, 1070ms total)
T0BC8 001:901 JLINK_WriteReg(R4, 0x00000000)  returns 0x00 (0000ms, 1070ms total)
T0BC8 001:901 JLINK_WriteReg(R5, 0x00000000)  returns 0x00 (0000ms, 1070ms total)
T0BC8 001:901 JLINK_WriteReg(R6, 0x00000000)  returns 0x00 (0000ms, 1070ms total)
T0BC8 001:901 JLINK_WriteReg(R7, 0x00000000)  returns 0x00 (0000ms, 1070ms total)
T0BC8 001:901 JLINK_WriteReg(R8, 0x00000000)  returns 0x00 (0000ms, 1070ms total)
T0BC8 001:901 JLINK_WriteReg(R9, 0x20000160)  returns 0x00 (0000ms, 1070ms total)
T0BC8 001:901 JLINK_WriteReg(R10, 0x00000000)  returns 0x00 (0000ms, 1070ms total)
T0BC8 001:901 JLINK_WriteReg(R11, 0x00000000)  returns 0x00 (0000ms, 1070ms total)
T0BC8 001:901 JLINK_WriteReg(R12, 0x00000000)  returns 0x00 (0000ms, 1070ms total)
T0BC8 001:901 JLINK_WriteReg(R13 (SP), 0x20001000)  returns 0x00 (0000ms, 1070ms total)
T0BC8 001:901 JLINK_WriteReg(R14, 0x20000001)  returns 0x00 (0000ms, 1070ms total)
T0BC8 001:901 JLINK_WriteReg(R15 (PC), 0x200000F4)  returns 0x00 (0001ms, 1071ms total)
T0BC8 001:902 JLINK_WriteReg(XPSR, 0x01000000)  returns 0x00 (0000ms, 1071ms total)
T0BC8 001:902 JLINK_WriteReg(MSP, 0x20001000)  returns 0x00 (0000ms, 1071ms total)
T0BC8 001:902 JLINK_WriteReg(PSP, 0x20001000)  returns 0x00 (0000ms, 1071ms total)
T0BC8 001:902 JLINK_WriteReg(CFBP, 0x00000000)  returns 0x00 (0000ms, 1071ms total)
T0BC8 001:902 JLINK_SetBPEx(Addr = 0x20000000, Type = 0xFFFFFFF2)  returns 0x0000000C (0000ms, 1071ms total)
T0BC8 001:902 JLINK_Go() (0002ms, 1073ms total)
T0BC8 001:904 JLINK_IsHalted()  returns FALSE (0000ms, 1073ms total)
T0BC8 001:908 JLINK_IsHalted()  returns FALSE (0000ms, 1073ms total)
T0BC8 001:919 JLINK_IsHalted()  returns FALSE (0000ms, 1073ms total)
T0BC8 001:921 JLINK_IsHalted()  returns FALSE (0001ms, 1074ms total)
T0BC8 001:930 JLINK_IsHalted()  returns FALSE (0000ms, 1073ms total)
T0BC8 001:932 JLINK_IsHalted()  returns FALSE (0001ms, 1074ms total)
T0BC8 001:935 JLINK_IsHalted() -- CPU_ReadMem(2 bytes @ 0x20000000)  returns TRUE (0004ms, 1077ms total)
T0BC8 001:939 JLINK_ReadReg(R15 (PC))  returns 0x20000000 (0000ms, 1073ms total)
T0BC8 001:939 JLINK_ClrBPEx(BPHandle = 0x0000000C)  returns 0x00 (0000ms, 1073ms total)
T0BC8 001:939 JLINK_ReadReg(R0)  returns 0x00000000 (0000ms, 1073ms total)
T0BC8 001:940 JLINK_WriteMem(0x20000164, 0x0400 Bytes, ...) - Data: FA 6F 45 D2 A8 48 00 68 08 F0 78 FA CD E9 0E 01 ... -- CPU_WriteMem(1024 bytes @ 0x20000164)  returns 0x400 (0013ms, 1086ms total)
T0BC8 001:953 JLINK_WriteReg(R0, 0x08002000)  returns 0x00 (0000ms, 1086ms total)
T0BC8 001:953 JLINK_WriteReg(R1, 0x00000400)  returns 0x00 (0000ms, 1086ms total)
T0BC8 001:953 JLINK_WriteReg(R2, 0x20000164)  returns 0x00 (0000ms, 1086ms total)
T0BC8 001:953 JLINK_WriteReg(R3, 0x00000000)  returns 0x00 (0000ms, 1086ms total)
T0BC8 001:953 JLINK_WriteReg(R4, 0x00000000)  returns 0x00 (0000ms, 1086ms total)
T0BC8 001:953 JLINK_WriteReg(R5, 0x00000000)  returns 0x00 (0000ms, 1086ms total)
T0BC8 001:953 JLINK_WriteReg(R6, 0x00000000)  returns 0x00 (0001ms, 1087ms total)
T0BC8 001:954 JLINK_WriteReg(R7, 0x00000000)  returns 0x00 (0000ms, 1087ms total)
T0BC8 001:954 JLINK_WriteReg(R8, 0x00000000)  returns 0x00 (0000ms, 1087ms total)
T0BC8 001:954 JLINK_WriteReg(R9, 0x20000160)  returns 0x00 (0000ms, 1087ms total)
T0BC8 001:954 JLINK_WriteReg(R10, 0x00000000)  returns 0x00 (0000ms, 1087ms total)
T0BC8 001:954 JLINK_WriteReg(R11, 0x00000000)  returns 0x00 (0000ms, 1087ms total)
T0BC8 001:954 JLINK_WriteReg(R12, 0x00000000)  returns 0x00 (0000ms, 1087ms total)
T0BC8 001:954 JLINK_WriteReg(R13 (SP), 0x20001000)  returns 0x00 (0000ms, 1087ms total)
T0BC8 001:954 JLINK_WriteReg(R14, 0x20000001)  returns 0x00 (0000ms, 1087ms total)
T0BC8 001:954 JLINK_WriteReg(R15 (PC), 0x200000F4)  returns 0x00 (0000ms, 1087ms total)
T0BC8 001:955 JLINK_WriteReg(XPSR, 0x01000000)  returns 0x00 (0000ms, 1088ms total)
T0BC8 001:955 JLINK_WriteReg(MSP, 0x20001000)  returns 0x00 (0000ms, 1088ms total)
T0BC8 001:955 JLINK_WriteReg(PSP, 0x20001000)  returns 0x00 (0000ms, 1088ms total)
T0BC8 001:955 JLINK_WriteReg(CFBP, 0x00000000)  returns 0x00 (0000ms, 1088ms total)
T0BC8 001:955 JLINK_SetBPEx(Addr = 0x20000000, Type = 0xFFFFFFF2)  returns 0x0000000D (0000ms, 1088ms total)
T0BC8 001:955 JLINK_Go() (0003ms, 1091ms total)
T0BC8 001:958 JLINK_IsHalted()  returns FALSE (0000ms, 1091ms total)
T0BC8 001:969 JLINK_IsHalted()  returns FALSE (0001ms, 1092ms total)
T0BC8 001:972 JLINK_IsHalted()  returns FALSE (0000ms, 1091ms total)
T0BC8 001:982 JLINK_IsHalted()  returns FALSE (0001ms, 1092ms total)
T0BC8 001:985 JLINK_IsHalted()  returns FALSE (0001ms, 1092ms total)
T0BC8 001:991 JLINK_IsHalted() -- CPU_ReadMem(2 bytes @ 0x20000000)  returns TRUE (0004ms, 1095ms total)
T0BC8 001:995 JLINK_ReadReg(R15 (PC))  returns 0x20000000 (0000ms, 1091ms total)
T0BC8 001:995 JLINK_ClrBPEx(BPHandle = 0x0000000D)  returns 0x00 (0001ms, 1092ms total)
T0BC8 001:996 JLINK_ReadReg(R0)  returns 0x00000000 (0000ms, 1092ms total)
T0BC8 001:997 JLINK_WriteMem(0x20000164, 0x0400 Bytes, ...) - Data: 22 48 00 F0 F1 FE 00 20 21 49 08 60 08 BD 70 B5 ... -- CPU_WriteMem(1024 bytes @ 0x20000164)  returns 0x400 (0012ms, 1104ms total)
T0BC8 002:009 JLINK_WriteReg(R0, 0x08002400)  returns 0x00 (0001ms, 1105ms total)
T0BC8 002:010 JLINK_WriteReg(R1, 0x00000400)  returns 0x00 (0000ms, 1105ms total)
T0BC8 002:010 JLINK_WriteReg(R2, 0x20000164)  returns 0x00 (0000ms, 1105ms total)
T0BC8 002:010 JLINK_WriteReg(R3, 0x00000000)  returns 0x00 (0000ms, 1105ms total)
T0BC8 002:010 JLINK_WriteReg(R4, 0x00000000)  returns 0x00 (0000ms, 1105ms total)
T0BC8 002:010 JLINK_WriteReg(R5, 0x00000000)  returns 0x00 (0001ms, 1106ms total)
T0BC8 002:011 JLINK_WriteReg(R6, 0x00000000)  returns 0x00 (0000ms, 1106ms total)
T0BC8 002:011 JLINK_WriteReg(R7, 0x00000000)  returns 0x00 (0000ms, 1106ms total)
T0BC8 002:011 JLINK_WriteReg(R8, 0x00000000)  returns 0x00 (0000ms, 1106ms total)
T0BC8 002:011 JLINK_WriteReg(R9, 0x20000160)  returns 0x00 (0000ms, 1106ms total)
T0BC8 002:011 JLINK_WriteReg(R10, 0x00000000)  returns 0x00 (0000ms, 1106ms total)
T0BC8 002:011 JLINK_WriteReg(R11, 0x00000000)  returns 0x00 (0000ms, 1106ms total)
T0BC8 002:012 JLINK_WriteReg(R12, 0x00000000)  returns 0x00 (0000ms, 1106ms total)
T0BC8 002:012 JLINK_WriteReg(R13 (SP), 0x20001000)  returns 0x00 (0000ms, 1106ms total)
T0BC8 002:012 JLINK_WriteReg(R14, 0x20000001)  returns 0x00 (0000ms, 1106ms total)
T0BC8 002:012 JLINK_WriteReg(R15 (PC), 0x200000F4)  returns 0x00 (0000ms, 1106ms total)
T0BC8 002:012 JLINK_WriteReg(XPSR, 0x01000000)  returns 0x00 (0000ms, 1106ms total)
T0BC8 002:012 JLINK_WriteReg(MSP, 0x20001000)  returns 0x00 (0000ms, 1106ms total)
T0BC8 002:012 JLINK_WriteReg(PSP, 0x20001000)  returns 0x00 (0001ms, 1107ms total)
T0BC8 002:013 JLINK_WriteReg(CFBP, 0x00000000)  returns 0x00 (0000ms, 1107ms total)
T0BC8 002:013 JLINK_SetBPEx(Addr = 0x20000000, Type = 0xFFFFFFF2)  returns 0x0000000E (0000ms, 1107ms total)
T0BC8 002:013 JLINK_Go() (0002ms, 1109ms total)
T0BC8 002:015 JLINK_IsHalted()  returns FALSE (0001ms, 1110ms total)
T0BC8 002:033 JLINK_IsHalted()  returns FALSE (0000ms, 1109ms total)
T0BC8 002:035 JLINK_IsHalted()  returns FALSE (0001ms, 1110ms total)
T0BC8 002:045 JLINK_IsHalted()  returns FALSE (0001ms, 1110ms total)
T0BC8 002:048 JLINK_IsHalted() -- CPU_ReadMem(2 bytes @ 0x20000000)  returns TRUE (0004ms, 1113ms total)
T0BC8 002:052 JLINK_ReadReg(R15 (PC))  returns 0x20000000 (0001ms, 1110ms total)
T0BC8 002:053 JLINK_ClrBPEx(BPHandle = 0x0000000E)  returns 0x00 (0000ms, 1110ms total)
T0BC8 002:053 JLINK_ReadReg(R0)  returns 0x00000000 (0000ms, 1110ms total)
T0BC8 002:054 JLINK_WriteMem(0x20000164, 0x0400 Bytes, ...) - Data: 48 20 8D F8 03 00 69 46 27 48 00 F0 ED FC 00 20 ... -- CPU_WriteMem(1024 bytes @ 0x20000164)  returns 0x400 (0016ms, 1126ms total)
T0BC8 002:070 JLINK_WriteReg(R0, 0x08002800)  returns 0x00 (0001ms, 1127ms total)
T0BC8 002:071 JLINK_WriteReg(R1, 0x00000400)  returns 0x00 (0000ms, 1127ms total)
T0BC8 002:071 JLINK_WriteReg(R2, 0x20000164)  returns 0x00 (0000ms, 1127ms total)
T0BC8 002:071 JLINK_WriteReg(R3, 0x00000000)  returns 0x00 (0000ms, 1127ms total)
T0BC8 002:071 JLINK_WriteReg(R4, 0x00000000)  returns 0x00 (0000ms, 1127ms total)
T0BC8 002:071 JLINK_WriteReg(R5, 0x00000000)  returns 0x00 (0000ms, 1127ms total)
T0BC8 002:071 JLINK_WriteReg(R6, 0x00000000)  returns 0x00 (0000ms, 1127ms total)
T0BC8 002:072 JLINK_WriteReg(R7, 0x00000000)  returns 0x00 (0000ms, 1128ms total)
T0BC8 002:072 JLINK_WriteReg(R8, 0x00000000)  returns 0x00 (0000ms, 1128ms total)
T0BC8 002:072 JLINK_WriteReg(R9, 0x20000160)  returns 0x00 (0000ms, 1128ms total)
T0BC8 002:072 JLINK_WriteReg(R10, 0x00000000)  returns 0x00 (0000ms, 1128ms total)
T0BC8 002:072 JLINK_WriteReg(R11, 0x00000000)  returns 0x00 (0000ms, 1128ms total)
T0BC8 002:072 JLINK_WriteReg(R12, 0x00000000)  returns 0x00 (0000ms, 1128ms total)
T0BC8 002:072 JLINK_WriteReg(R13 (SP), 0x20001000)  returns 0x00 (0000ms, 1128ms total)
T0BC8 002:073 JLINK_WriteReg(R14, 0x20000001)  returns 0x00 (0000ms, 1129ms total)
T0BC8 002:073 JLINK_WriteReg(R15 (PC), 0x200000F4)  returns 0x00 (0000ms, 1129ms total)
T0BC8 002:073 JLINK_WriteReg(XPSR, 0x01000000)  returns 0x00 (0000ms, 1129ms total)
T0BC8 002:073 JLINK_WriteReg(MSP, 0x20001000)  returns 0x00 (0000ms, 1129ms total)
T0BC8 002:073 JLINK_WriteReg(PSP, 0x20001000)  returns 0x00 (0000ms, 1129ms total)
T0BC8 002:073 JLINK_WriteReg(CFBP, 0x00000000)  returns 0x00 (0000ms, 1129ms total)
T0BC8 002:073 JLINK_SetBPEx(Addr = 0x20000000, Type = 0xFFFFFFF2)  returns 0x0000000F (0001ms, 1130ms total)
T0BC8 002:074 JLINK_Go() (0002ms, 1132ms total)
T0BC8 002:076 JLINK_IsHalted()  returns FALSE (0001ms, 1133ms total)
T0BC8 002:106 JLINK_IsHalted()  returns FALSE (0000ms, 1132ms total)
T0BC8 002:108 JLINK_IsHalted() -- CPU_ReadMem(2 bytes @ 0x20000000)  returns TRUE (0005ms, 1137ms total)
T0BC8 002:113 JLINK_ReadReg(R15 (PC))  returns 0x20000000 (0000ms, 1132ms total)
T0BC8 002:113 JLINK_ClrBPEx(BPHandle = 0x0000000F)  returns 0x00 (0000ms, 1132ms total)
T0BC8 002:113 JLINK_ReadReg(R0)  returns 0x00000000 (0000ms, 1132ms total)
T0BC8 002:115 JLINK_WriteMem(0x20000164, 0x0400 Bytes, ...) - Data: 08 BD 00 B5 91 B0 01 21 08 46 00 F0 9C FD 01 21 ... -- CPU_WriteMem(1024 bytes @ 0x20000164)  returns 0x400 (0012ms, 1144ms total)
T0BC8 002:127 JLINK_WriteReg(R0, 0x08002C00)  returns 0x00 (0000ms, 1144ms total)
T0BC8 002:127 JLINK_WriteReg(R1, 0x00000400)  returns 0x00 (0000ms, 1144ms total)
T0BC8 002:128 JLINK_WriteReg(R2, 0x20000164)  returns 0x00 (0000ms, 1145ms total)
T0BC8 002:128 JLINK_WriteReg(R3, 0x00000000)  returns 0x00 (0000ms, 1145ms total)
T0BC8 002:128 JLINK_WriteReg(R4, 0x00000000)  returns 0x00 (0000ms, 1145ms total)
T0BC8 002:128 JLINK_WriteReg(R5, 0x00000000)  returns 0x00 (0000ms, 1145ms total)
T0BC8 002:128 JLINK_WriteReg(R6, 0x00000000)  returns 0x00 (0000ms, 1145ms total)
T0BC8 002:128 JLINK_WriteReg(R7, 0x00000000)  returns 0x00 (0000ms, 1145ms total)
T0BC8 002:128 JLINK_WriteReg(R8, 0x00000000)  returns 0x00 (0000ms, 1145ms total)
T0BC8 002:128 JLINK_WriteReg(R9, 0x20000160)  returns 0x00 (0000ms, 1145ms total)
T0BC8 002:128 JLINK_WriteReg(R10, 0x00000000)  returns 0x00 (0001ms, 1146ms total)
T0BC8 002:129 JLINK_WriteReg(R11, 0x00000000)  returns 0x00 (0000ms, 1146ms total)
T0BC8 002:129 JLINK_WriteReg(R12, 0x00000000)  returns 0x00 (0000ms, 1146ms total)
T0BC8 002:129 JLINK_WriteReg(R13 (SP), 0x20001000)  returns 0x00 (0000ms, 1146ms total)
T0BC8 002:129 JLINK_WriteReg(R14, 0x20000001)  returns 0x00 (0000ms, 1146ms total)
T0BC8 002:129 JLINK_WriteReg(R15 (PC), 0x200000F4)  returns 0x00 (0000ms, 1146ms total)
T0BC8 002:129 JLINK_WriteReg(XPSR, 0x01000000)  returns 0x00 (0000ms, 1146ms total)
T0BC8 002:129 JLINK_WriteReg(MSP, 0x20001000)  returns 0x00 (0000ms, 1146ms total)
T0BC8 002:129 JLINK_WriteReg(PSP, 0x20001000)  returns 0x00 (0000ms, 1146ms total)
T0BC8 002:130 JLINK_WriteReg(CFBP, 0x00000000)  returns 0x00 (0000ms, 1147ms total)
T0BC8 002:130 JLINK_SetBPEx(Addr = 0x20000000, Type = 0xFFFFFFF2)  returns 0x00000010 (0000ms, 1147ms total)
T0BC8 002:130 JLINK_Go() (0002ms, 1149ms total)
T0BC8 002:132 JLINK_IsHalted()  returns FALSE (0001ms, 1150ms total)
T0BC8 002:153 JLINK_IsHalted()  returns FALSE (0001ms, 1150ms total)
T0BC8 002:156 JLINK_IsHalted()  returns FALSE (0001ms, 1150ms total)
T0BC8 002:163 JLINK_IsHalted() -- CPU_ReadMem(2 bytes @ 0x20000000)  returns TRUE (0004ms, 1153ms total)
T0BC8 002:167 JLINK_ReadReg(R15 (PC))  returns 0x20000000 (0001ms, 1150ms total)
T0BC8 002:168 JLINK_ClrBPEx(BPHandle = 0x00000010)  returns 0x00 (0000ms, 1150ms total)
T0BC8 002:168 JLINK_ReadReg(R0)  returns 0x00000000 (0000ms, 1150ms total)
T0BC8 002:169 JLINK_WriteMem(0x20000164, 0x0400 Bytes, ...) - Data: 00 08 01 40 64 00 00 20 E8 2A 00 20 09 48 80 47 ... -- CPU_WriteMem(1024 bytes @ 0x20000164)  returns 0x400 (0013ms, 1163ms total)
T0BC8 002:182 JLINK_WriteReg(R0, 0x08003000)  returns 0x00 (0000ms, 1163ms total)
T0BC8 002:182 JLINK_WriteReg(R1, 0x00000400)  returns 0x00 (0000ms, 1163ms total)
T0BC8 002:182 JLINK_WriteReg(R2, 0x20000164)  returns 0x00 (0000ms, 1163ms total)
